Circuit: * \\psf\Home\Documents\workspace\hardware\FlexModules\FlexADCBuffer\Rarray\sims\FlexADCBuffer.asc

WARNING: Less than two connections to node U1:VB_2_VREF.  This node is used by E:U1:58.
Instance "m:u1:_nmos1": Length shorter than recommended for a level 1 MOSFET.
Instance "m:u1:_nmos1": Width narrower than recommended for a level 1 MOSFET.
Instance "m:u1:_nmos2": Length shorter than recommended for a level 1 MOSFET.
Instance "m:u1:_nmos2": Width narrower than recommended for a level 1 MOSFET.
Direct Newton iteration failed to find .op point.  (Use ".option noopiter" to skip.)
Starting Gmin stepping
Gmin = 10
vernier = 0.5
vernier = 0.25
Gmin = 2.62144
vernier = 0.125
vernier = 0.0625
vernier = 0.03125
Gmin = 2.35552
vernier = 0.015625
vernier = 0.0078125
vernier = 0.00390625
vernier = 0.00195313
Gmin = 2.36583
vernier = 0.000976563
vernier = 0.000488281
Gmin = 0
Gmin stepping succeeded in finding the operating point.

Semiconductor Device Operating Points:
                        --- Diodes ---
Name:  d:u1:_outvlim_high d:u1:_outvlim_low d:u1:ilim_source d:u1:ilim_sink d:u1:prot_in_p_vccn
Model:   u1:diode_novd      u1:diode_novd    u1:diode_ilim   u1:diode_ilim     u1:diode_vlim
Id:        -2.18e-06          -1.12e-06         0.00e+00        0.00e+00         -9.58e-07
Vd:        -2.18e+00          -1.12e+00         0.00e+00        0.00e+00         -9.58e-01
Req:        1.00e+06           1.00e+06         1.00e+06        1.00e+06          1.00e+06
CAP:        0.00e+00           0.00e+00         0.00e+00        0.00e+00          0.00e+00

Name:  d:u1:prot_in_p_vccp d:u1:prot_in_m_vccn d:u1:vlim_low_vb d:u1:prot_in_m_vccp d:u1:vlim_high_vb
Model:    u1:diode_vlim       u1:diode_vlim     u1:diode_vlim      u1:diode_vlim      u1:diode_vlim
Id:         -2.03e-06           -9.58e-07         -8.80e-07          -2.03e-06          -8.80e-07
Vd:         -2.03e+00           -9.58e-01         -8.80e-01          -2.03e+00          -8.80e-01
Req:         1.00e+06            1.00e+06          1.00e+06           1.00e+06           1.00e+06
CAP:         0.00e+00            0.00e+00          0.00e+00           0.00e+00           0.00e+00

                        --- MOSFET Transistors ---
Name:      m:u1:_nmos1 m:u1:_nmos2
Model:      u1:mos_n    u1:mos_n
Id:          8.98e-06    8.98e-06
Vgs:         7.80e-01    7.80e-01
Vds:         3.10e+00    3.10e+00
Vbs:        -1.44e+00   -1.44e+00
Vth:         6.50e-01    6.50e-01
Vdsat:       1.30e-01    1.30e-01
Gm:          2.06e-05    2.06e-05
Gds:         0.00e+00    0.00e+00
Gmb:         0.00e+00    0.00e+00
Cbd:         0.00e+00    0.00e+00
Cbs:         0.00e+00    0.00e+00
Cgsov:       0.00e+00    0.00e+00
Cgdov:       0.00e+00    0.00e+00
Cgbov:       0.00e+00    0.00e+00
Cgs:         0.00e+00    0.00e+00
Cgd:         0.00e+00    0.00e+00
Cgb:         0.00e+00    0.00e+00



Date: Sun Aug 10 16:47:55 2014
Total elapsed time: 5.913 seconds.

tnom = 27
temp = 27
method = trap
totiter = 1960
traniter = 0
tranpoints = 0
accept = 0
rejected = 0
matrix size = 104
fillins = 116
solver = Normal
Matrix Compiler1: 8.77 KB object code size
Matrix Compiler2: 8.98 KB object code size  2.2/3.5/[1.2]


